
T22D8 000:406 SEGGER J-Link V5.02f Log File (0001ms, 0274ms total)
T22D8 000:406 DLL Compiled: Oct  2 2015 20:51:34 (0002ms, 0275ms total)
T22D8 000:406 Logging started @ 2017-05-15 20:45 (0002ms, 0275ms total)
T22D8 000:408 JLINK_SetWarnOutHandler(...) (0000ms, 0275ms total)
T22D8 000:408 JLINK_OpenEx(...)
Firmware: J-Link ARM-OB STM32 compiled Aug 22 2012 19:52:04
Hardware: V7.00
S/N: 20090928
Feature(s): RDI,FlashDL,FlashBP,JFlash,GDBFull  returns O.K. (0264ms, 0539ms total)
T22D8 000:673 JLINK_SetErrorOutHandler(...) (0000ms, 0539ms total)
T22D8 000:673 JLINK_ExecCommand("ProjectFile = "E:\my_code\ºº×ÖÏÔÊ¾1\USER\JLinkSettings.ini"", ...)  returns 0x00 (0002ms, 0541ms total)
T22D8 000:712 JLINK_ExecCommand("Device = STM32F103ZE", ...)Device "STM32F103ZE" selected.  returns 0x00 (0037ms, 0578ms total)
T22D8 000:749 JLINK_ExecCommand("DisableConnectionTimeout", ...)  returns 0x01 (0000ms, 0578ms total)
T22D8 000:749 JLINK_GetHardwareVersion()  returns 0x11170 (0000ms, 0578ms total)
T22D8 000:749 JLINK_GetDLLVersion()  returns 50206 (0000ms, 0578ms total)
T22D8 000:749 JLINK_GetFirmwareString(...) (0000ms, 0578ms total)
T22D8 000:808 JLINK_GetDLLVersion()  returns 50206 (0000ms, 0578ms total)
T22D8 000:808 JLINK_GetCompileDateTime() (0000ms, 0578ms total)
T22D8 000:821 JLINK_GetFirmwareString(...) (0000ms, 0578ms total)
T22D8 000:834 JLINK_GetHardwareVersion()  returns 0x11170 (0000ms, 0578ms total)
T22D8 000:853 JLINK_TIF_Select(JLINKARM_TIF_SWD)  returns 0x00 (0001ms, 0579ms total)
T22D8 000:854 JLINK_SetSpeed(5000) (0000ms, 0579ms total)
T22D8 000:854 JLINK_GetId() >0x108 TIF>Found SWD-DP with ID 0x1BA01477 >0x0D TIF> >0x28 TIF> >0x0D TIF> >0x28 TIF> >0x0D TIF> >0x21 TIF> >0x0D TIF> >0x28 TIF> >0x0D TIF> >0x28 TIF> >0x0D TIF> >0x28 TIF> >0x0D TIF> >0x21 TIF> >0x0D TIF> >0x21 TIF> >0x0D TIF> >0x28 TIF> >0x0D TIF> >0x21 TIF> >0x0D TIF> >0x21 TIF> >0x0D TIF> >0x28 TIF> >0x0D TIF> >0x21 TIF> >0x0D TIF> >0x21 TIF> >0x0D TIF> >0x28 TIF> >0x0D TIF> >0x21 TIF> >0x0D TIF> >0x21 TIF> >0x108 TIF>Found SWD-DP with ID 0x1BA01477 >0x0D TIF> >0x21 TIF>
 >0x0D TIF> >0x28 TIF> >0x0D TIF> >0x28 TIF> >0x0D TIF> >0x21 TIF> >0x0D TIF> >0x28 TIF> >0x0D TIF> >0x21 TIF> >0x0D TIF> >0x21 TIF> >0x0D TIF> >0x21 TIF> >0x0D TIF> >0x21 TIF> >0x0D TIF> >0x28 TIF> >0x0D TIF> >0x28 TIF> >0x0D TIF> >0x21 TIF> >0x0D TIF> >0x28 TIF> >0x0D TIF> >0x28 TIF> >0x0D TIF> >0x28 TIF> >0x0D TIF> >0x21 TIF> >0x0D TIF> >0x21 TIF> >0x0D TIF> >0x28 TIF> >0x0D TIF> >0x21 TIF> >0x0D TIF> >0x21 TIF>Found Cortex-M3 r1p1, Little endian. -- CPU_ReadMem(4 bytes @ 0xE000EDF0)
 -- CPU_ReadMem(4 bytes @ 0xE0002000)FPUnit: 6 code (BP) slots and 2 literal slots -- CPU_ReadMem(4 bytes @ 0xE000EDFC) -- CPU_ReadMem(4 bytes @ 0xE0001000) -- CPU_WriteMem(4 bytes @ 0xE0001000) -- CPU_ReadMem(4 bytes @ 0xE000ED88) -- CPU_WriteMem(4 bytes @ 0xE000ED88) -- CPU_ReadMem(4 bytes @ 0xE000ED88) -- CPU_WriteMem(4 bytes @ 0xE000ED88)CoreSight components:ROMTbl 0 @ E00FF000 -- CPU_ReadMem(16 bytes @ 0xE00FF000) -- CPU_ReadMem(16 bytes @ 0xE000EFF0) -- CPU_ReadMem(16 bytes @ 0xE000EFE0)
ROMTbl 0 [0]: FFF0F000, CID: B105E00D, PID: 001BB000 SCS -- CPU_ReadMem(16 bytes @ 0xE0001FF0) -- CPU_ReadMem(16 bytes @ 0xE0001FE0)ROMTbl 0 [1]: FFF02000, CID: B105E00D, PID: 001BB002 DWT -- CPU_ReadMem(16 bytes @ 0xE0002FF0) -- CPU_ReadMem(16 bytes @ 0xE0002FE0)ROMTbl 0 [2]: FFF03000, CID: B105E00D, PID: 000BB003 FPB -- CPU_ReadMem(16 bytes @ 0xE0000FF0) -- CPU_ReadMem(16 bytes @ 0xE0000FE0)ROMTbl 0 [3]: FFF01000, CID: B105E00D, PID: 001BB001 ITM -- CPU_ReadMem(16 bytes @ 0xE00FF010)
 -- CPU_ReadMem(16 bytes @ 0xE0040FF0) -- CPU_ReadMem(16 bytes @ 0xE0040FE0)ROMTbl 0 [4]: FFF41000, CID: B105900D, PID: 001BB923 TPIU-Lite -- CPU_ReadMem(16 bytes @ 0xE0041FF0) -- CPU_ReadMem(16 bytes @ 0xE0041FE0)ROMTbl 0 [5]: FFF42000, CID: B105900D, PID: 101BB924 ETM-M3 >0x0D TIF> >0x21 TIF>  returns 0x1BA01477 (0066ms, 0645ms total)
T22D8 000:920 JLINK_GetDLLVersion()  returns 50206 (0000ms, 0645ms total)
T22D8 000:920 JLINK_CORE_GetFound()  returns 0x30000FF (0000ms, 0645ms total)
T22D8 000:920 JLINK_GetDebugInfo(0x100) -- Value=0xE00FF003  returns 0x00 (0000ms, 0645ms total)
T22D8 000:925 JLINK_GetDebugInfo(0x100) -- Value=0xE00FF003  returns 0x00 (0000ms, 0645ms total)
T22D8 000:925 JLINK_GetDebugInfo(0x101) -- Value=0xE0041000  returns 0x00 (0000ms, 0645ms total)
T22D8 000:925 JLINK_GetDebugInfo(0x102) -- Value=0x00000000  returns 0x00 (0000ms, 0645ms total)
T22D8 000:925 JLINK_GetDebugInfo(0x103) -- Value=0xE0040000  returns 0x00 (0000ms, 0645ms total)
T22D8 000:925 JLINK_GetDebugInfo(0x104) -- Value=0xE0000000  returns 0x00 (0000ms, 0645ms total)
T22D8 000:925 JLINK_GetDebugInfo(0x105) -- Value=0xE0001000  returns 0x00 (0000ms, 0645ms total)
T22D8 000:925 JLINK_GetDebugInfo(0x106) -- Value=0xE0002000  returns 0x00 (0000ms, 0645ms total)
T22D8 000:925 JLINK_GetDebugInfo(0x107) -- Value=0xE000E000  returns 0x00 (0000ms, 0645ms total)
T22D8 000:925 JLINK_GetDebugInfo(0x10C) -- Value=0xE000EDF0  returns 0x00 (0000ms, 0645ms total)
T22D8 000:925 JLINK_ReadMemU32(0xE000ED00, 0x0001 Items, ...) -- CPU is running -- CPU_ReadMem(4 bytes @ 0xE000ED00) - Data: 31 C2 1F 41  returns 0x01 (0001ms, 0646ms total)
T22D8 000:926 JLINK_SetResetType(JLINKARM_RESET_TYPE_NORMAL)  returns JLINKARM_RESET_TYPE_NORMAL (0000ms, 0646ms total)
T22D8 000:926 JLINK_Reset() -- CPU is running -- CPU_WriteMem(4 bytes @ 0xE000EDF0) -- CPU is running -- CPU_WriteMem(4 bytes @ 0xE000EDFC) >0x35 TIF> -- CPU is running -- CPU_WriteMem(4 bytes @ 0xE000ED0C) -- CPU is running -- CPU_ReadMem(4 bytes @ 0xE000EDF0) -- CPU is running -- CPU_ReadMem(4 bytes @ 0xE000EDF0) -- CPU is running -- CPU_WriteMem(4 bytes @ 0xE000EDF0) -- CPU is running -- CPU_WriteMem(4 bytes @ 0xE000EDFC) -- CPU is running -- CPU_ReadMem(4 bytes @ 0xE000EDF0)
 -- CPU_WriteMem(4 bytes @ 0xE0002000) -- CPU_ReadMem(4 bytes @ 0xE000EDFC) -- CPU_ReadMem(4 bytes @ 0xE0001000) (0018ms, 0664ms total)
T22D8 000:944 JLINK_Halt()  returns 0x00 (0000ms, 0664ms total)
T22D8 000:944 JLINK_IsHalted()  returns TRUE (0000ms, 0664ms total)
T22D8 000:944 JLINK_ReadMemU32(0xE000EDF0, 0x0001 Items, ...) -- CPU_ReadMem(4 bytes @ 0xE000EDF0) - Data: 03 00 03 00  returns 0x01 (0001ms, 0665ms total)
T22D8 000:945 JLINK_WriteU32(0xE000EDF0, 0xA05F0003) -- CPU_WriteMem(4 bytes @ 0xE000EDF0)  returns 0x00 (0000ms, 0665ms total)
T22D8 000:945 JLINK_WriteU32(0xE000EDFC, 0x01000000) -- CPU_WriteMem(4 bytes @ 0xE000EDFC)  returns 0x00 (0001ms, 0666ms total)
T22D8 000:956 JLINK_GetHWStatus(...)  returns 0x00 (0000ms, 0666ms total)
T22D8 000:962 JLINK_GetNumBPUnits(Type = 0xFFFFFF00)  returns 0x06 (0000ms, 0666ms total)
T22D8 000:962 JLINK_GetNumBPUnits(Type = 0xF0)  returns 0x2000 (0000ms, 0666ms total)
T22D8 000:962 JLINK_GetNumWPUnits()  returns 0x04 (0000ms, 0666ms total)
T22D8 000:968 JLINK_GetSpeed()  returns 0xFA0 (0000ms, 0666ms total)
T22D8 000:971 JLINK_ReadMemU32(0xE000E004, 0x0001 Items, ...) -- CPU_ReadMem(4 bytes @ 0xE000E004) - Data: 01 00 00 00  returns 0x01 (0001ms, 0667ms total)
T22D8 000:972 JLINK_ReadMemU32(0xE000E004, 0x0001 Items, ...) -- CPU_ReadMem(4 bytes @ 0xE000E004) - Data: 01 00 00 00  returns 0x01 (0001ms, 0668ms total)
T22D8 000:973 JLINK_WriteMem(0xE0001000, 0x001C Bytes, ...) - Data: 01 00 00 00 00 00 00 00 00 00 00 00 00 00 00 00 ... -- CPU_WriteMem(28 bytes @ 0xE0001000)  returns 0x1C (0001ms, 0669ms total)
T22D8 000:974 JLINK_ReadMem (0xE0001000, 0x001C Bytes, ...) -- CPU_ReadMem(28 bytes @ 0xE0001000) - Data: 01 00 00 40 00 00 00 00 00 00 00 00 00 00 00 00 ...  returns 0x00 (0001ms, 0670ms total)
T22D8 000:975 JLINK_Halt()  returns 0x00 (0000ms, 0670ms total)
T22D8 000:975 JLINK_IsHalted()  returns TRUE (0000ms, 0670ms total)
T22D8 000:977 JLINK_WriteMem(0x20000000, 0x0164 Bytes, ...) - Data: 00 BE 0A E0 0D 78 2D 06 68 40 08 24 40 00 00 D3 ... -- CPU_WriteMem(356 bytes @ 0x20000000)  returns 0x164 (0006ms, 0676ms total)
T22D8 000:983 JLINK_WriteReg(R0, 0x08000000)  returns 0x00 (0000ms, 0676ms total)
T22D8 000:983 JLINK_WriteReg(R1, 0x007A1200)  returns 0x00 (0000ms, 0676ms total)
T22D8 000:983 JLINK_WriteReg(R2, 0x00000001)  returns 0x00 (0000ms, 0676ms total)
T22D8 000:983 JLINK_WriteReg(R3, 0x00000000)  returns 0x00 (0000ms, 0676ms total)
T22D8 000:983 JLINK_WriteReg(R4, 0x00000000)  returns 0x00 (0000ms, 0676ms total)
T22D8 000:983 JLINK_WriteReg(R5, 0x00000000)  returns 0x00 (0000ms, 0676ms total)
T22D8 000:983 JLINK_WriteReg(R6, 0x00000000)  returns 0x00 (0000ms, 0676ms total)
T22D8 000:983 JLINK_WriteReg(R7, 0x00000000)  returns 0x00 (0000ms, 0676ms total)
T22D8 000:983 JLINK_WriteReg(R8, 0x00000000)  returns 0x00 (0000ms, 0676ms total)
T22D8 000:983 JLINK_WriteReg(R9, 0x20000160)  returns 0x00 (0000ms, 0676ms total)
T22D8 000:983 JLINK_WriteReg(R10, 0x00000000)  returns 0x00 (0000ms, 0676ms total)
T22D8 000:983 JLINK_WriteReg(R11, 0x00000000)  returns 0x00 (0000ms, 0676ms total)
T22D8 000:983 JLINK_WriteReg(R12, 0x00000000)  returns 0x00 (0000ms, 0676ms total)
T22D8 000:983 JLINK_WriteReg(R13 (SP), 0x20001000)  returns 0x00 (0000ms, 0676ms total)
T22D8 000:983 JLINK_WriteReg(R14, 0x20000001)  returns 0x00 (0000ms, 0676ms total)
T22D8 000:983 JLINK_WriteReg(R15 (PC), 0x20000038)  returns 0x00 (0000ms, 0676ms total)
T22D8 000:983 JLINK_WriteReg(XPSR, 0x01000000)  returns 0x00 (0000ms, 0676ms total)
T22D8 000:983 JLINK_WriteReg(MSP, 0x20001000)  returns 0x00 (0000ms, 0676ms total)
T22D8 000:983 JLINK_WriteReg(PSP, 0x20001000)  returns 0x00 (0000ms, 0676ms total)
T22D8 000:983 JLINK_WriteReg(CFBP, 0x00000000)  returns 0x00 (0000ms, 0676ms total)
T22D8 000:983 JLINK_SetBPEx(Addr = 0x20000000, Type = 0xFFFFFFF2) -- CPU_ReadMem(2 bytes @ 0x20000000)  returns 0x00000001 (0001ms, 0677ms total)
T22D8 000:984 JLINK_Go() -- CPU_WriteMem(2 bytes @ 0x20000000) -- CPU_ReadMem(4 bytes @ 0xE0001000) -- CPU_WriteMem(4 bytes @ 0xE0002008) -- CPU_WriteMem(4 bytes @ 0xE000200C) -- CPU_WriteMem(4 bytes @ 0xE0002010) -- CPU_WriteMem(4 bytes @ 0xE0002014) -- CPU_WriteMem(4 bytes @ 0xE0002018) -- CPU_WriteMem(4 bytes @ 0xE000201C) -- CPU_WriteMem(4 bytes @ 0xE0001004) (0006ms, 0683ms total)
T22D8 000:990 JLINK_IsHalted() -- CPU_ReadMem(2 bytes @ 0x20000000)  returns TRUE (0004ms, 0687ms total)
T22D8 000:994 JLINK_ReadReg(R15 (PC))  returns 0x20000000 (0000ms, 0683ms total)
T22D8 000:994 JLINK_ClrBPEx(BPHandle = 0x00000001)  returns 0x00 (0000ms, 0683ms total)
T22D8 000:994 JLINK_ReadReg(R0)  returns 0x00000000 (0000ms, 0683ms total)
T22D8 000:994 JLINK_WriteReg(R0, 0x08000000)  returns 0x00 (0001ms, 0684ms total)
T22D8 000:995 JLINK_WriteReg(R1, 0x007A1200)  returns 0x00 (0000ms, 0684ms total)
T22D8 000:995 JLINK_WriteReg(R2, 0x00000001)  returns 0x00 (0000ms, 0684ms total)
T22D8 000:995 JLINK_WriteReg(R3, 0x00000000)  returns 0x00 (0000ms, 0684ms total)
T22D8 000:995 JLINK_WriteReg(R4, 0x00000000)  returns 0x00 (0000ms, 0684ms total)
T22D8 000:995 JLINK_WriteReg(R5, 0x00000000)  returns 0x00 (0000ms, 0684ms total)
T22D8 000:995 JLINK_WriteReg(R6, 0x00000000)  returns 0x00 (0000ms, 0684ms total)
T22D8 000:995 JLINK_WriteReg(R7, 0x00000000)  returns 0x00 (0000ms, 0684ms total)
T22D8 000:995 JLINK_WriteReg(R8, 0x00000000)  returns 0x00 (0000ms, 0684ms total)
T22D8 000:995 JLINK_WriteReg(R9, 0x20000160)  returns 0x00 (0000ms, 0684ms total)
T22D8 000:995 JLINK_WriteReg(R10, 0x00000000)  returns 0x00 (0000ms, 0684ms total)
T22D8 000:995 JLINK_WriteReg(R11, 0x00000000)  returns 0x00 (0000ms, 0684ms total)
T22D8 000:995 JLINK_WriteReg(R12, 0x00000000)  returns 0x00 (0000ms, 0684ms total)
T22D8 000:995 JLINK_WriteReg(R13 (SP), 0x20001000)  returns 0x00 (0000ms, 0684ms total)
T22D8 000:995 JLINK_WriteReg(R14, 0x20000001)  returns 0x00 (0000ms, 0684ms total)
T22D8 000:995 JLINK_WriteReg(R15 (PC), 0x2000007C)  returns 0x00 (0000ms, 0684ms total)
T22D8 000:995 JLINK_WriteReg(XPSR, 0x01000000)  returns 0x00 (0000ms, 0684ms total)
T22D8 000:995 JLINK_WriteReg(MSP, 0x20001000)  returns 0x00 (0000ms, 0684ms total)
T22D8 000:995 JLINK_WriteReg(PSP, 0x20001000)  returns 0x00 (0000ms, 0684ms total)
T22D8 000:995 JLINK_WriteReg(CFBP, 0x00000000)  returns 0x00 (0000ms, 0684ms total)
T22D8 000:995 JLINK_SetBPEx(Addr = 0x20000000, Type = 0xFFFFFFF2)  returns 0x00000002 (0000ms, 0684ms total)
T22D8 000:995 JLINK_Go() -- CPU_ReadMem(4 bytes @ 0xE0001000) (0002ms, 0686ms total)
T22D8 000:997 JLINK_IsHalted()  returns FALSE (0001ms, 0687ms total)
T22D8 001:092 JLINK_IsHalted() -- CPU_ReadMem(2 bytes @ 0x20000000)  returns TRUE (0004ms, 0690ms total)
T22D8 001:096 JLINK_ReadReg(R15 (PC))  returns 0x20000000 (0000ms, 0686ms total)
T22D8 001:096 JLINK_ClrBPEx(BPHandle = 0x00000002)  returns 0x00 (0000ms, 0686ms total)
T22D8 001:096 JLINK_ReadReg(R0)  returns 0x00000000 (0000ms, 0686ms total)
T22D8 001:148 JLINK_WriteReg(R0, 0x00000001)  returns 0x00 (0000ms, 0686ms total)
T22D8 001:148 JLINK_WriteReg(R1, 0x007A1200)  returns 0x00 (0000ms, 0686ms total)
T22D8 001:148 JLINK_WriteReg(R2, 0x00000001)  returns 0x00 (0000ms, 0686ms total)
T22D8 001:148 JLINK_WriteReg(R3, 0x00000000)  returns 0x00 (0000ms, 0686ms total)
T22D8 001:148 JLINK_WriteReg(R4, 0x00000000)  returns 0x00 (0000ms, 0686ms total)
T22D8 001:148 JLINK_WriteReg(R5, 0x00000000)  returns 0x00 (0000ms, 0686ms total)
T22D8 001:148 JLINK_WriteReg(R6, 0x00000000)  returns 0x00 (0000ms, 0686ms total)
T22D8 001:148 JLINK_WriteReg(R7, 0x00000000)  returns 0x00 (0000ms, 0686ms total)
T22D8 001:148 JLINK_WriteReg(R8, 0x00000000)  returns 0x00 (0000ms, 0686ms total)
T22D8 001:148 JLINK_WriteReg(R9, 0x20000160)  returns 0x00 (0000ms, 0686ms total)
T22D8 001:148 JLINK_WriteReg(R10, 0x00000000)  returns 0x00 (0000ms, 0686ms total)
T22D8 001:148 JLINK_WriteReg(R11, 0x00000000)  returns 0x00 (0000ms, 0686ms total)
T22D8 001:148 JLINK_WriteReg(R12, 0x00000000)  returns 0x00 (0000ms, 0686ms total)
T22D8 001:148 JLINK_WriteReg(R13 (SP), 0x20001000)  returns 0x00 (0000ms, 0686ms total)
T22D8 001:148 JLINK_WriteReg(R14, 0x20000001)  returns 0x00 (0000ms, 0686ms total)
T22D8 001:148 JLINK_WriteReg(R15 (PC), 0x2000006A)  returns 0x00 (0000ms, 0686ms total)
T22D8 001:148 JLINK_WriteReg(XPSR, 0x01000000)  returns 0x00 (0000ms, 0686ms total)
T22D8 001:148 JLINK_WriteReg(MSP, 0x20001000)  returns 0x00 (0000ms, 0686ms total)
T22D8 001:148 JLINK_WriteReg(PSP, 0x20001000)  returns 0x00 (0000ms, 0686ms total)
T22D8 001:148 JLINK_WriteReg(CFBP, 0x00000000)  returns 0x00 (0000ms, 0686ms total)
T22D8 001:148 JLINK_SetBPEx(Addr = 0x20000000, Type = 0xFFFFFFF2)  returns 0x00000003 (0000ms, 0686ms total)
T22D8 001:148 JLINK_Go() -- CPU_ReadMem(4 bytes @ 0xE0001000) (0003ms, 0689ms total)
T22D8 001:151 JLINK_IsHalted() -- CPU_ReadMem(2 bytes @ 0x20000000)  returns TRUE (0004ms, 0693ms total)
T22D8 001:155 JLINK_ReadReg(R15 (PC))  returns 0x20000000 (0000ms, 0689ms total)
T22D8 001:155 JLINK_ClrBPEx(BPHandle = 0x00000003)  returns 0x00 (0000ms, 0689ms total)
T22D8 001:155 JLINK_ReadReg(R0)  returns 0x00000000 (0000ms, 0689ms total)
T22D8 001:178 JLINK_WriteMem(0x20000000, 0x0164 Bytes, ...) - Data: 00 BE 0A E0 0D 78 2D 06 68 40 08 24 40 00 00 D3 ... -- CPU_WriteMem(356 bytes @ 0x20000000)  returns 0x164 (0005ms, 0694ms total)
T22D8 001:183 JLINK_WriteReg(R0, 0x08000000)  returns 0x00 (0000ms, 0694ms total)
T22D8 001:183 JLINK_WriteReg(R1, 0x007A1200)  returns 0x00 (0000ms, 0694ms total)
T22D8 001:183 JLINK_WriteReg(R2, 0x00000002)  returns 0x00 (0000ms, 0694ms total)
T22D8 001:183 JLINK_WriteReg(R3, 0x00000000)  returns 0x00 (0000ms, 0694ms total)
T22D8 001:183 JLINK_WriteReg(R4, 0x00000000)  returns 0x00 (0000ms, 0694ms total)
T22D8 001:183 JLINK_WriteReg(R5, 0x00000000)  returns 0x00 (0000ms, 0694ms total)
T22D8 001:183 JLINK_WriteReg(R6, 0x00000000)  returns 0x00 (0000ms, 0694ms total)
T22D8 001:183 JLINK_WriteReg(R7, 0x00000000)  returns 0x00 (0000ms, 0694ms total)
T22D8 001:183 JLINK_WriteReg(R8, 0x00000000)  returns 0x00 (0000ms, 0694ms total)
T22D8 001:183 JLINK_WriteReg(R9, 0x20000160)  returns 0x00 (0000ms, 0694ms total)
T22D8 001:183 JLINK_WriteReg(R10, 0x00000000)  returns 0x00 (0000ms, 0694ms total)
T22D8 001:183 JLINK_WriteReg(R11, 0x00000000)  returns 0x00 (0000ms, 0694ms total)
T22D8 001:183 JLINK_WriteReg(R12, 0x00000000)  returns 0x00 (0001ms, 0695ms total)
T22D8 001:184 JLINK_WriteReg(R13 (SP), 0x20001000)  returns 0x00 (0000ms, 0695ms total)
T22D8 001:184 JLINK_WriteReg(R14, 0x20000001)  returns 0x00 (0000ms, 0695ms total)
T22D8 001:184 JLINK_WriteReg(R15 (PC), 0x20000038)  returns 0x00 (0000ms, 0695ms total)
T22D8 001:184 JLINK_WriteReg(XPSR, 0x01000000)  returns 0x00 (0000ms, 0695ms total)
T22D8 001:184 JLINK_WriteReg(MSP, 0x20001000)  returns 0x00 (0000ms, 0695ms total)
T22D8 001:184 JLINK_WriteReg(PSP, 0x20001000)  returns 0x00 (0000ms, 0695ms total)
T22D8 001:184 JLINK_WriteReg(CFBP, 0x00000000)  returns 0x00 (0000ms, 0695ms total)
T22D8 001:184 JLINK_SetBPEx(Addr = 0x20000000, Type = 0xFFFFFFF2) -- CPU_ReadMem(2 bytes @ 0x20000000)  returns 0x00000004 (0001ms, 0696ms total)
T22D8 001:185 JLINK_Go() -- CPU_WriteMem(2 bytes @ 0x20000000) -- CPU_ReadMem(4 bytes @ 0xE0001000) (0002ms, 0698ms total)
T22D8 001:187 JLINK_IsHalted() -- CPU_ReadMem(2 bytes @ 0x20000000)  returns TRUE (0004ms, 0702ms total)
T22D8 001:191 JLINK_ReadReg(R15 (PC))  returns 0x20000000 (0000ms, 0698ms total)
T22D8 001:191 JLINK_ClrBPEx(BPHandle = 0x00000004)  returns 0x00 (0000ms, 0698ms total)
T22D8 001:191 JLINK_ReadReg(R0)  returns 0x00000000 (0000ms, 0698ms total)
T22D8 001:192 JLINK_WriteMem(0x20000164, 0x0400 Bytes, ...) - Data: 80 B7 00 20 D5 01 00 08 65 34 00 08 75 15 00 08 ... -- CPU_WriteMem(1024 bytes @ 0x20000164)  returns 0x400 (0013ms, 0711ms total)
T22D8 001:205 JLINK_WriteReg(R0, 0x08000000)  returns 0x00 (0000ms, 0711ms total)
T22D8 001:205 JLINK_WriteReg(R1, 0x00000400)  returns 0x00 (0000ms, 0711ms total)
T22D8 001:205 JLINK_WriteReg(R2, 0x20000164)  returns 0x00 (0000ms, 0711ms total)
T22D8 001:205 JLINK_WriteReg(R3, 0x00000000)  returns 0x00 (0000ms, 0711ms total)
T22D8 001:205 JLINK_WriteReg(R4, 0x00000000)  returns 0x00 (0000ms, 0711ms total)
T22D8 001:205 JLINK_WriteReg(R5, 0x00000000)  returns 0x00 (0000ms, 0711ms total)
T22D8 001:205 JLINK_WriteReg(R6, 0x00000000)  returns 0x00 (0000ms, 0711ms total)
T22D8 001:205 JLINK_WriteReg(R7, 0x00000000)  returns 0x00 (0000ms, 0711ms total)
T22D8 001:205 JLINK_WriteReg(R8, 0x00000000)  returns 0x00 (0000ms, 0711ms total)
T22D8 001:205 JLINK_WriteReg(R9, 0x20000160)  returns 0x00 (0000ms, 0711ms total)
T22D8 001:205 JLINK_WriteReg(R10, 0x00000000)  returns 0x00 (0000ms, 0711ms total)
T22D8 001:205 JLINK_WriteReg(R11, 0x00000000)  returns 0x00 (0000ms, 0711ms total)
T22D8 001:205 JLINK_WriteReg(R12, 0x00000000)  returns 0x00 (0000ms, 0711ms total)
T22D8 001:205 JLINK_WriteReg(R13 (SP), 0x20001000)  returns 0x00 (0000ms, 0711ms total)
T22D8 001:205 JLINK_WriteReg(R14, 0x20000001)  returns 0x00 (0000ms, 0711ms total)
T22D8 001:205 JLINK_WriteReg(R15 (PC), 0x200000F4)  returns 0x00 (0000ms, 0711ms total)
T22D8 001:205 JLINK_WriteReg(XPSR, 0x01000000)  returns 0x00 (0000ms, 0711ms total)
T22D8 001:205 JLINK_WriteReg(MSP, 0x20001000)  returns 0x00 (0000ms, 0711ms total)
T22D8 001:205 JLINK_WriteReg(PSP, 0x20001000)  returns 0x00 (0000ms, 0711ms total)
T22D8 001:206 JLINK_WriteReg(CFBP, 0x00000000)  returns 0x00 (0000ms, 0711ms total)
T22D8 001:206 JLINK_SetBPEx(Addr = 0x20000000, Type = 0xFFFFFFF2)  returns 0x00000005 (0000ms, 0711ms total)
T22D8 001:206 JLINK_Go() -- CPU_ReadMem(4 bytes @ 0xE0001000) (0002ms, 0713ms total)
T22D8 001:208 JLINK_IsHalted()  returns FALSE (0001ms, 0714ms total)
T22D8 001:259 JLINK_IsHalted() -- CPU_ReadMem(2 bytes @ 0x20000000)  returns TRUE (0004ms, 0717ms total)
T22D8 001:263 JLINK_ReadReg(R15 (PC))  returns 0x20000000 (0000ms, 0713ms total)
T22D8 001:263 JLINK_ClrBPEx(BPHandle = 0x00000005)  returns 0x00 (0000ms, 0713ms total)
T22D8 001:263 JLINK_ReadReg(R0)  returns 0x00000000 (0000ms, 0713ms total)
T22D8 001:263 JLINK_WriteMem(0x20000164, 0x0400 Bytes, ...) - Data: C4 DB A0 69 00 28 03 DA 40 42 45 F0 01 05 A0 61 ... -- CPU_WriteMem(1024 bytes @ 0x20000164)  returns 0x400 (0013ms, 0726ms total)
T22D8 001:276 JLINK_WriteReg(R0, 0x08000400)  returns 0x00 (0000ms, 0726ms total)
T22D8 001:276 JLINK_WriteReg(R1, 0x00000400)  returns 0x00 (0000ms, 0726ms total)
T22D8 001:276 JLINK_WriteReg(R2, 0x20000164)  returns 0x00 (0000ms, 0726ms total)
T22D8 001:276 JLINK_WriteReg(R3, 0x00000000)  returns 0x00 (0000ms, 0726ms total)
T22D8 001:276 JLINK_WriteReg(R4, 0x00000000)  returns 0x00 (0000ms, 0726ms total)
T22D8 001:276 JLINK_WriteReg(R5, 0x00000000)  returns 0x00 (0000ms, 0726ms total)
T22D8 001:276 JLINK_WriteReg(R6, 0x00000000)  returns 0x00 (0000ms, 0726ms total)
T22D8 001:276 JLINK_WriteReg(R7, 0x00000000)  returns 0x00 (0000ms, 0726ms total)
T22D8 001:276 JLINK_WriteReg(R8, 0x00000000)  returns 0x00 (0000ms, 0726ms total)
T22D8 001:276 JLINK_WriteReg(R9, 0x20000160)  returns 0x00 (0000ms, 0726ms total)
T22D8 001:276 JLINK_WriteReg(R10, 0x00000000)  returns 0x00 (0000ms, 0726ms total)
T22D8 001:276 JLINK_WriteReg(R11, 0x00000000)  returns 0x00 (0000ms, 0726ms total)
T22D8 001:276 JLINK_WriteReg(R12, 0x00000000)  returns 0x00 (0000ms, 0726ms total)
T22D8 001:276 JLINK_WriteReg(R13 (SP), 0x20001000)  returns 0x00 (0000ms, 0726ms total)
T22D8 001:276 JLINK_WriteReg(R14, 0x20000001)  returns 0x00 (0000ms, 0726ms total)
T22D8 001:276 JLINK_WriteReg(R15 (PC), 0x200000F4)  returns 0x00 (0000ms, 0726ms total)
T22D8 001:276 JLINK_WriteReg(XPSR, 0x01000000)  returns 0x00 (0000ms, 0726ms total)
T22D8 001:276 JLINK_WriteReg(MSP, 0x20001000)  returns 0x00 (0000ms, 0726ms total)
T22D8 001:276 JLINK_WriteReg(PSP, 0x20001000)  returns 0x00 (0000ms, 0726ms total)
T22D8 001:276 JLINK_WriteReg(CFBP, 0x00000000)  returns 0x00 (0000ms, 0726ms total)
T22D8 001:276 JLINK_SetBPEx(Addr = 0x20000000, Type = 0xFFFFFFF2)  returns 0x00000006 (0000ms, 0726ms total)
T22D8 001:276 JLINK_Go() -- CPU_ReadMem(4 bytes @ 0xE0001000) (0002ms, 0728ms total)
T22D8 001:278 JLINK_IsHalted()  returns FALSE (0001ms, 0729ms total)
T22D8 001:285 JLINK_IsHalted()  returns FALSE (0001ms, 0729ms total)
T22D8 001:287 JLINK_IsHalted()  returns FALSE (0001ms, 0729ms total)
T22D8 001:289 JLINK_IsHalted()  returns FALSE (0001ms, 0729ms total)
T22D8 001:291 JLINK_IsHalted()  returns FALSE (0001ms, 0729ms total)
T22D8 001:293 JLINK_IsHalted()  returns FALSE (0000ms, 0728ms total)
T22D8 001:295 JLINK_IsHalted()  returns FALSE (0000ms, 0728ms total)
T22D8 001:296 JLINK_IsHalted()  returns FALSE (0001ms, 0729ms total)
T22D8 001:307 JLINK_IsHalted()  returns FALSE (0001ms, 0729ms total)
T22D8 001:309 JLINK_IsHalted() -- CPU_ReadMem(2 bytes @ 0x20000000)  returns TRUE (0004ms, 0732ms total)
T22D8 001:313 JLINK_ReadReg(R15 (PC))  returns 0x20000000 (0000ms, 0728ms total)
T22D8 001:313 JLINK_ClrBPEx(BPHandle = 0x00000006)  returns 0x00 (0000ms, 0728ms total)
T22D8 001:313 JLINK_ReadReg(R0)  returns 0x00000000 (0001ms, 0729ms total)
T22D8 001:318 JLINK_WriteMem(0x20000164, 0x0400 Bytes, ...) - Data: 00 0C 01 40 30 00 00 20 F8 B5 00 24 48 20 8D F8 ... -- CPU_WriteMem(1024 bytes @ 0x20000164)  returns 0x400 (0013ms, 0742ms total)
T22D8 001:331 JLINK_WriteReg(R0, 0x08000800)  returns 0x00 (0000ms, 0742ms total)
T22D8 001:331 JLINK_WriteReg(R1, 0x00000400)  returns 0x00 (0000ms, 0742ms total)
T22D8 001:331 JLINK_WriteReg(R2, 0x20000164)  returns 0x00 (0000ms, 0742ms total)
T22D8 001:331 JLINK_WriteReg(R3, 0x00000000)  returns 0x00 (0000ms, 0742ms total)
T22D8 001:331 JLINK_WriteReg(R4, 0x00000000)  returns 0x00 (0000ms, 0742ms total)
T22D8 001:331 JLINK_WriteReg(R5, 0x00000000)  returns 0x00 (0000ms, 0742ms total)
T22D8 001:331 JLINK_WriteReg(R6, 0x00000000)  returns 0x00 (0001ms, 0743ms total)
T22D8 001:332 JLINK_WriteReg(R7, 0x00000000)  returns 0x00 (0000ms, 0743ms total)
T22D8 001:332 JLINK_WriteReg(R8, 0x00000000)  returns 0x00 (0000ms, 0743ms total)
T22D8 001:332 JLINK_WriteReg(R9, 0x20000160)  returns 0x00 (0000ms, 0743ms total)
T22D8 001:332 JLINK_WriteReg(R10, 0x00000000)  returns 0x00 (0000ms, 0743ms total)
T22D8 001:332 JLINK_WriteReg(R11, 0x00000000)  returns 0x00 (0000ms, 0743ms total)
T22D8 001:332 JLINK_WriteReg(R12, 0x00000000)  returns 0x00 (0000ms, 0743ms total)
T22D8 001:332 JLINK_WriteReg(R13 (SP), 0x20001000)  returns 0x00 (0000ms, 0743ms total)
T22D8 001:332 JLINK_WriteReg(R14, 0x20000001)  returns 0x00 (0000ms, 0743ms total)
T22D8 001:332 JLINK_WriteReg(R15 (PC), 0x200000F4)  returns 0x00 (0001ms, 0744ms total)
T22D8 001:333 JLINK_WriteReg(XPSR, 0x01000000)  returns 0x00 (0000ms, 0744ms total)
T22D8 001:333 JLINK_WriteReg(MSP, 0x20001000)  returns 0x00 (0000ms, 0744ms total)
T22D8 001:333 JLINK_WriteReg(PSP, 0x20001000)  returns 0x00 (0000ms, 0744ms total)
T22D8 001:333 JLINK_WriteReg(CFBP, 0x00000000)  returns 0x00 (0000ms, 0744ms total)
T22D8 001:333 JLINK_SetBPEx(Addr = 0x20000000, Type = 0xFFFFFFF2)  returns 0x00000007 (0000ms, 0744ms total)
T22D8 001:333 JLINK_Go() -- CPU_ReadMem(4 bytes @ 0xE0001000) (0003ms, 0747ms total)
T22D8 001:336 JLINK_IsHalted()  returns FALSE (0001ms, 0748ms total)
T22D8 001:398 JLINK_IsHalted() -- CPU_ReadMem(2 bytes @ 0x20000000)  returns TRUE (0004ms, 0751ms total)
T22D8 001:402 JLINK_ReadReg(R15 (PC))  returns 0x20000000 (0000ms, 0747ms total)
T22D8 001:402 JLINK_ClrBPEx(BPHandle = 0x00000007)  returns 0x00 (0000ms, 0747ms total)
T22D8 001:402 JLINK_ReadReg(R0)  returns 0x00000000 (0000ms, 0747ms total)
T22D8 001:402 JLINK_WriteMem(0x20000164, 0x0400 Bytes, ...) - Data: 36 49 08 39 49 68 41 F4 70 41 34 4A 08 3A 51 60 ... -- CPU_WriteMem(1024 bytes @ 0x20000164)  returns 0x400 (0013ms, 0760ms total)
T22D8 001:415 JLINK_WriteReg(R0, 0x08000C00)  returns 0x00 (0000ms, 0760ms total)
T22D8 001:415 JLINK_WriteReg(R1, 0x00000400)  returns 0x00 (0000ms, 0760ms total)
T22D8 001:415 JLINK_WriteReg(R2, 0x20000164)  returns 0x00 (0000ms, 0760ms total)
T22D8 001:415 JLINK_WriteReg(R3, 0x00000000)  returns 0x00 (0000ms, 0760ms total)
T22D8 001:415 JLINK_WriteReg(R4, 0x00000000)  returns 0x00 (0000ms, 0760ms total)
T22D8 001:415 JLINK_WriteReg(R5, 0x00000000)  returns 0x00 (0000ms, 0760ms total)
T22D8 001:415 JLINK_WriteReg(R6, 0x00000000)  returns 0x00 (0000ms, 0760ms total)
T22D8 001:415 JLINK_WriteReg(R7, 0x00000000)  returns 0x00 (0000ms, 0760ms total)
T22D8 001:415 JLINK_WriteReg(R8, 0x00000000)  returns 0x00 (0000ms, 0760ms total)
T22D8 001:415 JLINK_WriteReg(R9, 0x20000160)  returns 0x00 (0000ms, 0760ms total)
T22D8 001:415 JLINK_WriteReg(R10, 0x00000000)  returns 0x00 (0000ms, 0760ms total)
T22D8 001:415 JLINK_WriteReg(R11, 0x00000000)  returns 0x00 (0000ms, 0760ms total)
T22D8 001:415 JLINK_WriteReg(R12, 0x00000000)  returns 0x00 (0000ms, 0760ms total)
T22D8 001:415 JLINK_WriteReg(R13 (SP), 0x20001000)  returns 0x00 (0000ms, 0760ms total)
T22D8 001:415 JLINK_WriteReg(R14, 0x20000001)  returns 0x00 (0000ms, 0760ms total)
T22D8 001:415 JLINK_WriteReg(R15 (PC), 0x200000F4)  returns 0x00 (0000ms, 0760ms total)
T22D8 001:415 JLINK_WriteReg(XPSR, 0x01000000)  returns 0x00 (0000ms, 0760ms total)
T22D8 001:415 JLINK_WriteReg(MSP, 0x20001000)  returns 0x00 (0000ms, 0760ms total)
T22D8 001:415 JLINK_WriteReg(PSP, 0x20001000)  returns 0x00 (0000ms, 0760ms total)
T22D8 001:415 JLINK_WriteReg(CFBP, 0x00000000)  returns 0x00 (0000ms, 0760ms total)
T22D8 001:415 JLINK_SetBPEx(Addr = 0x20000000, Type = 0xFFFFFFF2)  returns 0x00000008 (0000ms, 0760ms total)
T22D8 001:415 JLINK_Go() -- CPU_ReadMem(4 bytes @ 0xE0001000) (0003ms, 0763ms total)
T22D8 001:418 JLINK_IsHalted()  returns FALSE (0000ms, 0763ms total)
T22D8 001:427 JLINK_IsHalted()  returns FALSE (0001ms, 0764ms total)
T22D8 001:429 JLINK_IsHalted()  returns FALSE (0000ms, 0763ms total)
T22D8 001:431 JLINK_IsHalted()  returns FALSE (0000ms, 0763ms total)
T22D8 001:433 JLINK_IsHalted()  returns FALSE (0000ms, 0763ms total)
T22D8 001:435 JLINK_IsHalted()  returns FALSE (0000ms, 0763ms total)
T22D8 001:437 JLINK_IsHalted()  returns FALSE (0000ms, 0763ms total)
T22D8 001:464 JLINK_IsHalted() -- CPU_ReadMem(2 bytes @ 0x20000000)  returns TRUE (0004ms, 0767ms total)
T22D8 001:468 JLINK_ReadReg(R15 (PC))  returns 0x20000000 (0000ms, 0763ms total)
T22D8 001:468 JLINK_ClrBPEx(BPHandle = 0x00000008)  returns 0x00 (0000ms, 0763ms total)
T22D8 001:468 JLINK_ReadReg(R0)  returns 0x00000000 (0000ms, 0763ms total)
T22D8 001:469 JLINK_WriteMem(0x20000164, 0x0400 Bytes, ...) - Data: 01 03 82 00 A2 F1 C0 42 13 60 09 E0 82 00 A2 F1 ... -- CPU_WriteMem(1024 bytes @ 0x20000164)  returns 0x400 (0012ms, 0775ms total)
T22D8 001:481 JLINK_WriteReg(R0, 0x08001000)  returns 0x00 (0000ms, 0775ms total)
T22D8 001:481 JLINK_WriteReg(R1, 0x00000400)  returns 0x00 (0000ms, 0775ms total)
T22D8 001:481 JLINK_WriteReg(R2, 0x20000164)  returns 0x00 (0000ms, 0775ms total)
T22D8 001:481 JLINK_WriteReg(R3, 0x00000000)  returns 0x00 (0000ms, 0775ms total)
T22D8 001:481 JLINK_WriteReg(R4, 0x00000000)  returns 0x00 (0000ms, 0775ms total)
T22D8 001:481 JLINK_WriteReg(R5, 0x00000000)  returns 0x00 (0000ms, 0775ms total)
T22D8 001:481 JLINK_WriteReg(R6, 0x00000000)  returns 0x00 (0000ms, 0775ms total)
T22D8 001:481 JLINK_WriteReg(R7, 0x00000000)  returns 0x00 (0000ms, 0775ms total)
T22D8 001:481 JLINK_WriteReg(R8, 0x00000000)  returns 0x00 (0000ms, 0775ms total)
T22D8 001:481 JLINK_WriteReg(R9, 0x20000160)  returns 0x00 (0000ms, 0775ms total)
T22D8 001:481 JLINK_WriteReg(R10, 0x00000000)  returns 0x00 (0000ms, 0775ms total)
T22D8 001:481 JLINK_WriteReg(R11, 0x00000000)  returns 0x00 (0000ms, 0775ms total)
T22D8 001:481 JLINK_WriteReg(R12, 0x00000000)  returns 0x00 (0000ms, 0775ms total)
T22D8 001:481 JLINK_WriteReg(R13 (SP), 0x20001000)  returns 0x00 (0000ms, 0775ms total)
T22D8 001:481 JLINK_WriteReg(R14, 0x20000001)  returns 0x00 (0000ms, 0775ms total)
T22D8 001:481 JLINK_WriteReg(R15 (PC), 0x200000F4)  returns 0x00 (0000ms, 0775ms total)
T22D8 001:481 JLINK_WriteReg(XPSR, 0x01000000)  returns 0x00 (0000ms, 0775ms total)
T22D8 001:481 JLINK_WriteReg(MSP, 0x20001000)  returns 0x00 (0000ms, 0775ms total)
T22D8 001:481 JLINK_WriteReg(PSP, 0x20001000)  returns 0x00 (0000ms, 0775ms total)
T22D8 001:481 JLINK_WriteReg(CFBP, 0x00000000)  returns 0x00 (0000ms, 0775ms total)
T22D8 001:481 JLINK_SetBPEx(Addr = 0x20000000, Type = 0xFFFFFFF2)  returns 0x00000009 (0000ms, 0775ms total)
T22D8 001:481 JLINK_Go() -- CPU_ReadMem(4 bytes @ 0xE0001000) (0003ms, 0778ms total)
T22D8 001:484 JLINK_IsHalted()  returns FALSE (0000ms, 0778ms total)
T22D8 001:490 JLINK_IsHalted()  returns FALSE (0000ms, 0778ms total)
T22D8 001:492 JLINK_IsHalted()  returns FALSE (0000ms, 0778ms total)
T22D8 001:494 JLINK_IsHalted()  returns FALSE (0000ms, 0778ms total)
T22D8 001:496 JLINK_IsHalted()  returns FALSE (0000ms, 0778ms total)
T22D8 001:498 JLINK_IsHalted()  returns FALSE (0000ms, 0778ms total)
T22D8 001:504 JLINK_IsHalted()  returns FALSE (0001ms, 0779ms total)
T22D8 001:507 JLINK_IsHalted()  returns FALSE (0000ms, 0778ms total)
T22D8 001:509 JLINK_IsHalted()  returns FALSE (0000ms, 0778ms total)
T22D8 001:511 JLINK_IsHalted()  returns FALSE (0001ms, 0779ms total)
T22D8 001:514 JLINK_IsHalted()  returns FALSE (0000ms, 0778ms total)
T22D8 001:516 JLINK_IsHalted() -- CPU_ReadMem(2 bytes @ 0x20000000)  returns TRUE (0003ms, 0781ms total)
T22D8 001:519 JLINK_ReadReg(R15 (PC))  returns 0x20000000 (0000ms, 0778ms total)
T22D8 001:519 JLINK_ClrBPEx(BPHandle = 0x00000009)  returns 0x00 (0000ms, 0778ms total)
T22D8 001:519 JLINK_ReadReg(R0)  returns 0x00000000 (0000ms, 0778ms total)
T22D8 001:520 JLINK_WriteMem(0x20000164, 0x0400 Bytes, ...) - Data: 2D E9 F0 5F 80 46 89 46 14 46 20 46 E2 17 04 EB ... -- CPU_WriteMem(1024 bytes @ 0x20000164)  returns 0x400 (0012ms, 0790ms total)
T22D8 001:532 JLINK_WriteReg(R0, 0x08001400)  returns 0x00 (0000ms, 0790ms total)
T22D8 001:532 JLINK_WriteReg(R1, 0x00000400)  returns 0x00 (0000ms, 0790ms total)
T22D8 001:532 JLINK_WriteReg(R2, 0x20000164)  returns 0x00 (0000ms, 0790ms total)
T22D8 001:532 JLINK_WriteReg(R3, 0x00000000)  returns 0x00 (0000ms, 0790ms total)
T22D8 001:532 JLINK_WriteReg(R4, 0x00000000)  returns 0x00 (0000ms, 0790ms total)
T22D8 001:532 JLINK_WriteReg(R5, 0x00000000)  returns 0x00 (0000ms, 0790ms total)
T22D8 001:532 JLINK_WriteReg(R6, 0x00000000)  returns 0x00 (0000ms, 0790ms total)
T22D8 001:532 JLINK_WriteReg(R7, 0x00000000)  returns 0x00 (0000ms, 0790ms total)
T22D8 001:532 JLINK_WriteReg(R8, 0x00000000)  returns 0x00 (0000ms, 0790ms total)
T22D8 001:532 JLINK_WriteReg(R9, 0x20000160)  returns 0x00 (0000ms, 0790ms total)
T22D8 001:532 JLINK_WriteReg(R10, 0x00000000)  returns 0x00 (0000ms, 0790ms total)
T22D8 001:532 JLINK_WriteReg(R11, 0x00000000)  returns 0x00 (0000ms, 0790ms total)
T22D8 001:532 JLINK_WriteReg(R12, 0x00000000)  returns 0x00 (0000ms, 0790ms total)
T22D8 001:532 JLINK_WriteReg(R13 (SP), 0x20001000)  returns 0x00 (0000ms, 0790ms total)
T22D8 001:532 JLINK_WriteReg(R14, 0x20000001)  returns 0x00 (0000ms, 0790ms total)
T22D8 001:532 JLINK_WriteReg(R15 (PC), 0x200000F4)  returns 0x00 (0000ms, 0790ms total)
T22D8 001:532 JLINK_WriteReg(XPSR, 0x01000000)  returns 0x00 (0000ms, 0790ms total)
T22D8 001:532 JLINK_WriteReg(MSP, 0x20001000)  returns 0x00 (0000ms, 0790ms total)
T22D8 001:532 JLINK_WriteReg(PSP, 0x20001000)  returns 0x00 (0000ms, 0790ms total)
T22D8 001:532 JLINK_WriteReg(CFBP, 0x00000000)  returns 0x00 (0000ms, 0790ms total)
T22D8 001:532 JLINK_SetBPEx(Addr = 0x20000000, Type = 0xFFFFFFF2)  returns 0x0000000A (0000ms, 0790ms total)
T22D8 001:532 JLINK_Go() -- CPU_ReadMem(4 bytes @ 0xE0001000) (0004ms, 0794ms total)
T22D8 001:536 JLINK_IsHalted()  returns FALSE (0000ms, 0794ms total)
T22D8 001:607 JLINK_IsHalted() -- CPU_ReadMem(2 bytes @ 0x20000000)  returns TRUE (0004ms, 0798ms total)
T22D8 001:611 JLINK_ReadReg(R15 (PC))  returns 0x20000000 (0000ms, 0794ms total)
T22D8 001:611 JLINK_ClrBPEx(BPHandle = 0x0000000A)  returns 0x00 (0000ms, 0794ms total)
T22D8 001:611 JLINK_ReadReg(R0)  returns 0x00000000 (0000ms, 0794ms total)
T22D8 001:611 JLINK_WriteMem(0x20000164, 0x0400 Bytes, ...) - Data: 01 21 08 02 01 F0 74 FE 01 21 40 F2 69 10 01 F0 ... -- CPU_WriteMem(1024 bytes @ 0x20000164)  returns 0x400 (0012ms, 0806ms total)
T22D8 001:623 JLINK_WriteReg(R0, 0x08001800)  returns 0x00 (0000ms, 0806ms total)
T22D8 001:623 JLINK_WriteReg(R1, 0x00000400)  returns 0x00 (0000ms, 0806ms total)
T22D8 001:623 JLINK_WriteReg(R2, 0x20000164)  returns 0x00 (0000ms, 0806ms total)
T22D8 001:623 JLINK_WriteReg(R3, 0x00000000)  returns 0x00 (0000ms, 0806ms total)
T22D8 001:623 JLINK_WriteReg(R4, 0x00000000)  returns 0x00 (0000ms, 0806ms total)
T22D8 001:623 JLINK_WriteReg(R5, 0x00000000)  returns 0x00 (0000ms, 0806ms total)
T22D8 001:623 JLINK_WriteReg(R6, 0x00000000)  returns 0x00 (0000ms, 0806ms total)
T22D8 001:623 JLINK_WriteReg(R7, 0x00000000)  returns 0x00 (0001ms, 0807ms total)
T22D8 001:624 JLINK_WriteReg(R8, 0x00000000)  returns 0x00 (0000ms, 0807ms total)
T22D8 001:624 JLINK_WriteReg(R9, 0x20000160)  returns 0x00 (0000ms, 0807ms total)
T22D8 001:624 JLINK_WriteReg(R10, 0x00000000)  returns 0x00 (0000ms, 0807ms total)
T22D8 001:624 JLINK_WriteReg(R11, 0x00000000)  returns 0x00 (0000ms, 0807ms total)
T22D8 001:624 JLINK_WriteReg(R12, 0x00000000)  returns 0x00 (0000ms, 0807ms total)
T22D8 001:624 JLINK_WriteReg(R13 (SP), 0x20001000)  returns 0x00 (0000ms, 0807ms total)
T22D8 001:624 JLINK_WriteReg(R14, 0x20000001)  returns 0x00 (0000ms, 0807ms total)
T22D8 001:624 JLINK_WriteReg(R15 (PC), 0x200000F4)  returns 0x00 (0000ms, 0807ms total)
T22D8 001:624 JLINK_WriteReg(XPSR, 0x01000000)  returns 0x00 (0000ms, 0807ms total)
T22D8 001:624 JLINK_WriteReg(MSP, 0x20001000)  returns 0x00 (0000ms, 0807ms total)
T22D8 001:624 JLINK_WriteReg(PSP, 0x20001000)  returns 0x00 (0000ms, 0807ms total)
T22D8 001:624 JLINK_WriteReg(CFBP, 0x00000000)  returns 0x00 (0000ms, 0807ms total)
T22D8 001:624 JLINK_SetBPEx(Addr = 0x20000000, Type = 0xFFFFFFF2)  returns 0x0000000B (0000ms, 0807ms total)
T22D8 001:624 JLINK_Go() -- CPU_ReadMem(4 bytes @ 0xE0001000) (0002ms, 0809ms total)
T22D8 001:626 JLINK_IsHalted()  returns FALSE (0000ms, 0809ms total)
T22D8 001:635 JLINK_IsHalted()  returns FALSE (0000ms, 0809ms total)
T22D8 001:637 JLINK_IsHalted()  returns FALSE (0000ms, 0809ms total)
T22D8 001:639 JLINK_IsHalted()  returns FALSE (0000ms, 0809ms total)
T22D8 001:644 JLINK_IsHalted()  returns FALSE (0000ms, 0809ms total)
T22D8 001:646 JLINK_IsHalted()  returns FALSE (0001ms, 0810ms total)
T22D8 001:649 JLINK_IsHalted()  returns FALSE (0000ms, 0809ms total)
T22D8 001:651 JLINK_IsHalted()  returns FALSE (0000ms, 0809ms total)
T22D8 001:653 JLINK_IsHalted()  returns FALSE (0000ms, 0809ms total)
T22D8 001:655 JLINK_IsHalted()  returns FALSE (0000ms, 0809ms total)
T22D8 001:657 JLINK_IsHalted() -- CPU_ReadMem(2 bytes @ 0x20000000)  returns TRUE (0003ms, 0812ms total)
T22D8 001:660 JLINK_ReadReg(R15 (PC))  returns 0x20000000 (0000ms, 0809ms total)
T22D8 001:660 JLINK_ClrBPEx(BPHandle = 0x0000000B)  returns 0x00 (0000ms, 0809ms total)
T22D8 001:660 JLINK_ReadReg(R0)  returns 0x00000000 (0000ms, 0809ms total)
T22D8 001:661 JLINK_WriteMem(0x20000164, 0x0400 Bytes, ...) - Data: 46 F6 04 01 88 42 7C D1 11 20 01 F0 11 FC 14 20 ... -- CPU_WriteMem(1024 bytes @ 0x20000164)  returns 0x400 (0012ms, 0821ms total)
T22D8 001:673 JLINK_WriteReg(R0, 0x08001C00)  returns 0x00 (0001ms, 0822ms total)
T22D8 001:674 JLINK_WriteReg(R1, 0x00000400)  returns 0x00 (0000ms, 0822ms total)
T22D8 001:674 JLINK_WriteReg(R2, 0x20000164)  returns 0x00 (0000ms, 0822ms total)
T22D8 001:674 JLINK_WriteReg(R3, 0x00000000)  returns 0x00 (0000ms, 0822ms total)
T22D8 001:674 JLINK_WriteReg(R4, 0x00000000)  returns 0x00 (0000ms, 0822ms total)
T22D8 001:674 JLINK_WriteReg(R5, 0x00000000)  returns 0x00 (0000ms, 0822ms total)
T22D8 001:674 JLINK_WriteReg(R6, 0x00000000)  returns 0x00 (0000ms, 0822ms total)
T22D8 001:674 JLINK_WriteReg(R7, 0x00000000)  returns 0x00 (0000ms, 0822ms total)
T22D8 001:674 JLINK_WriteReg(R8, 0x00000000)  returns 0x00 (0000ms, 0822ms total)
T22D8 001:674 JLINK_WriteReg(R9, 0x20000160)  returns 0x00 (0000ms, 0822ms total)
T22D8 001:674 JLINK_WriteReg(R10, 0x00000000)  returns 0x00 (0000ms, 0822ms total)
T22D8 001:674 JLINK_WriteReg(R11, 0x00000000)  returns 0x00 (0000ms, 0822ms total)
T22D8 001:674 JLINK_WriteReg(R12, 0x00000000)  returns 0x00 (0000ms, 0822ms total)
T22D8 001:674 JLINK_WriteReg(R13 (SP), 0x20001000)  returns 0x00 (0000ms, 0822ms total)
T22D8 001:674 JLINK_WriteReg(R14, 0x20000001)  returns 0x00 (0000ms, 0822ms total)
T22D8 001:674 JLINK_WriteReg(R15 (PC), 0x200000F4)  returns 0x00 (0000ms, 0822ms total)
T22D8 001:674 JLINK_WriteReg(XPSR, 0x01000000)  returns 0x00 (0000ms, 0822ms total)
T22D8 001:674 JLINK_WriteReg(MSP, 0x20001000)  returns 0x00 (0000ms, 0822ms total)
T22D8 001:674 JLINK_WriteReg(PSP, 0x20001000)  returns 0x00 (0000ms, 0822ms total)
T22D8 001:674 JLINK_WriteReg(CFBP, 0x00000000)  returns 0x00 (0000ms, 0822ms total)
T22D8 001:674 JLINK_SetBPEx(Addr = 0x20000000, Type = 0xFFFFFFF2)  returns 0x0000000C (0000ms, 0822ms total)
T22D8 001:674 JLINK_Go() -- CPU_ReadMem(4 bytes @ 0xE0001000) (0002ms, 0824ms total)
T22D8 001:676 JLINK_IsHalted()  returns FALSE (0001ms, 0825ms total)
T22D8 001:699 JLINK_IsHalted()  returns FALSE (0001ms, 0825ms total)
T22D8 001:702 JLINK_IsHalted()  returns FALSE (0000ms, 0824ms total)
T22D8 001:704 JLINK_IsHalted()  returns FALSE (0000ms, 0824ms total)
T22D8 001:706 JLINK_IsHalted()  returns FALSE (0000ms, 0824ms total)
T22D8 001:712 JLINK_IsHalted() -- CPU_ReadMem(2 bytes @ 0x20000000)  returns TRUE (0004ms, 0828ms total)
T22D8 001:716 JLINK_ReadReg(R15 (PC))  returns 0x20000000 (0000ms, 0824ms total)
T22D8 001:716 JLINK_ClrBPEx(BPHandle = 0x0000000C)  returns 0x00 (0000ms, 0824ms total)
T22D8 001:716 JLINK_ReadReg(R0)  returns 0x00000000 (0000ms, 0824ms total)
T22D8 001:716 JLINK_WriteMem(0x20000164, 0x0400 Bytes, ...) - Data: 4F F4 D0 51 13 20 01 F0 23 FA 06 21 29 20 01 F0 ... -- CPU_WriteMem(1024 bytes @ 0x20000164)  returns 0x400 (0013ms, 0837ms total)
T22D8 001:729 JLINK_WriteReg(R0, 0x08002000)  returns 0x00 (0000ms, 0837ms total)
T22D8 001:729 JLINK_WriteReg(R1, 0x00000400)  returns 0x00 (0000ms, 0837ms total)
T22D8 001:729 JLINK_WriteReg(R2, 0x20000164)  returns 0x00 (0000ms, 0837ms total)
T22D8 001:729 JLINK_WriteReg(R3, 0x00000000)  returns 0x00 (0000ms, 0837ms total)
T22D8 001:729 JLINK_WriteReg(R4, 0x00000000)  returns 0x00 (0000ms, 0837ms total)
T22D8 001:729 JLINK_WriteReg(R5, 0x00000000)  returns 0x00 (0000ms, 0837ms total)
T22D8 001:729 JLINK_WriteReg(R6, 0x00000000)  returns 0x00 (0000ms, 0837ms total)
T22D8 001:729 JLINK_WriteReg(R7, 0x00000000)  returns 0x00 (0000ms, 0837ms total)
T22D8 001:729 JLINK_WriteReg(R8, 0x00000000)  returns 0x00 (0000ms, 0837ms total)
T22D8 001:729 JLINK_WriteReg(R9, 0x20000160)  returns 0x00 (0000ms, 0837ms total)
T22D8 001:729 JLINK_WriteReg(R10, 0x00000000)  returns 0x00 (0000ms, 0837ms total)
T22D8 001:729 JLINK_WriteReg(R11, 0x00000000)  returns 0x00 (0000ms, 0837ms total)
T22D8 001:729 JLINK_WriteReg(R12, 0x00000000)  returns 0x00 (0000ms, 0837ms total)
T22D8 001:729 JLINK_WriteReg(R13 (SP), 0x20001000)  returns 0x00 (0000ms, 0837ms total)
T22D8 001:729 JLINK_WriteReg(R14, 0x20000001)  returns 0x00 (0000ms, 0837ms total)
T22D8 001:729 JLINK_WriteReg(R15 (PC), 0x200000F4)  returns 0x00 (0000ms, 0837ms total)
T22D8 001:729 JLINK_WriteReg(XPSR, 0x01000000)  returns 0x00 (0000ms, 0837ms total)
T22D8 001:729 JLINK_WriteReg(MSP, 0x20001000)  returns 0x00 (0000ms, 0837ms total)
T22D8 001:729 JLINK_WriteReg(PSP, 0x20001000)  returns 0x00 (0001ms, 0838ms total)
T22D8 001:730 JLINK_WriteReg(CFBP, 0x00000000)  returns 0x00 (0000ms, 0838ms total)
T22D8 001:730 JLINK_SetBPEx(Addr = 0x20000000, Type = 0xFFFFFFF2)  returns 0x0000000D (0000ms, 0838ms total)
T22D8 001:730 JLINK_Go() -- CPU_ReadMem(4 bytes @ 0xE0001000) (0002ms, 0840ms total)
T22D8 001:732 JLINK_IsHalted()  returns FALSE (0001ms, 0841ms total)
T22D8 001:745 JLINK_IsHalted()  returns FALSE (0000ms, 0840ms total)
T22D8 001:747 JLINK_IsHalted()  returns FALSE (0000ms, 0840ms total)
T22D8 001:749 JLINK_IsHalted()  returns FALSE (0000ms, 0840ms total)
T22D8 001:751 JLINK_IsHalted()  returns FALSE (0000ms, 0840ms total)
T22D8 001:761 JLINK_IsHalted()  returns FALSE (0001ms, 0841ms total)
T22D8 001:764 JLINK_IsHalted() -- CPU_ReadMem(2 bytes @ 0x20000000)  returns TRUE (0003ms, 0843ms total)
T22D8 001:767 JLINK_ReadReg(R15 (PC))  returns 0x20000000 (0000ms, 0840ms total)
T22D8 001:767 JLINK_ClrBPEx(BPHandle = 0x0000000D)  returns 0x00 (0000ms, 0840ms total)
T22D8 001:767 JLINK_ReadReg(R0)  returns 0x00000000 (0001ms, 0841ms total)
T22D8 001:770 JLINK_WriteMem(0x20000164, 0x0400 Bytes, ...) - Data: 27 F8 4F F4 1C 51 60 20 01 F0 22 F8 01 21 61 20 ... -- CPU_WriteMem(1024 bytes @ 0x20000164)  returns 0x400 (0012ms, 0853ms total)
T22D8 001:782 JLINK_WriteReg(R0, 0x08002400)  returns 0x00 (0000ms, 0853ms total)
T22D8 001:782 JLINK_WriteReg(R1, 0x00000400)  returns 0x00 (0000ms, 0853ms total)
T22D8 001:782 JLINK_WriteReg(R2, 0x20000164)  returns 0x00 (0000ms, 0853ms total)
T22D8 001:782 JLINK_WriteReg(R3, 0x00000000)  returns 0x00 (0000ms, 0853ms total)
T22D8 001:782 JLINK_WriteReg(R4, 0x00000000)  returns 0x00 (0000ms, 0853ms total)
T22D8 001:782 JLINK_WriteReg(R5, 0x00000000)  returns 0x00 (0000ms, 0853ms total)
T22D8 001:782 JLINK_WriteReg(R6, 0x00000000)  returns 0x00 (0000ms, 0853ms total)
T22D8 001:782 JLINK_WriteReg(R7, 0x00000000)  returns 0x00 (0000ms, 0853ms total)
T22D8 001:782 JLINK_WriteReg(R8, 0x00000000)  returns 0x00 (0001ms, 0854ms total)
T22D8 001:783 JLINK_WriteReg(R9, 0x20000160)  returns 0x00 (0000ms, 0854ms total)
T22D8 001:783 JLINK_WriteReg(R10, 0x00000000)  returns 0x00 (0000ms, 0854ms total)
T22D8 001:783 JLINK_WriteReg(R11, 0x00000000)  returns 0x00 (0000ms, 0854ms total)
T22D8 001:783 JLINK_WriteReg(R12, 0x00000000)  returns 0x00 (0000ms, 0854ms total)
T22D8 001:783 JLINK_WriteReg(R13 (SP), 0x20001000)  returns 0x00 (0000ms, 0854ms total)
T22D8 001:783 JLINK_WriteReg(R14, 0x20000001)  returns 0x00 (0000ms, 0854ms total)
T22D8 001:783 JLINK_WriteReg(R15 (PC), 0x200000F4)  returns 0x00 (0000ms, 0854ms total)
T22D8 001:783 JLINK_WriteReg(XPSR, 0x01000000)  returns 0x00 (0000ms, 0854ms total)
T22D8 001:783 JLINK_WriteReg(MSP, 0x20001000)  returns 0x00 (0000ms, 0854ms total)
T22D8 001:783 JLINK_WriteReg(PSP, 0x20001000)  returns 0x00 (0000ms, 0854ms total)
T22D8 001:783 JLINK_WriteReg(CFBP, 0x00000000)  returns 0x00 (0000ms, 0854ms total)
T22D8 001:783 JLINK_SetBPEx(Addr = 0x20000000, Type = 0xFFFFFFF2)  returns 0x0000000E (0000ms, 0854ms total)
T22D8 001:783 JLINK_Go() -- CPU_ReadMem(4 bytes @ 0xE0001000) (0003ms, 0857ms total)
T22D8 001:786 JLINK_IsHalted()  returns FALSE (0001ms, 0858ms total)
T22D8 001:844 JLINK_IsHalted() -- CPU_ReadMem(2 bytes @ 0x20000000)  returns TRUE (0003ms, 0860ms total)
T22D8 001:847 JLINK_ReadReg(R15 (PC))  returns 0x20000000 (0000ms, 0857ms total)
T22D8 001:847 JLINK_ClrBPEx(BPHandle = 0x0000000E)  returns 0x00 (0000ms, 0857ms total)
T22D8 001:847 JLINK_ReadReg(R0)  returns 0x00000000 (0000ms, 0857ms total)
T22D8 001:848 JLINK_WriteMem(0x20000164, 0x0400 Bytes, ...) - Data: 05 51 88 42 7E D1 00 21 08 46 00 F0 21 FE 00 21 ... -- CPU_WriteMem(1024 bytes @ 0x20000164)  returns 0x400 (0012ms, 0869ms total)
T22D8 001:860 JLINK_WriteReg(R0, 0x08002800)  returns 0x00 (0000ms, 0869ms total)
T22D8 001:860 JLINK_WriteReg(R1, 0x00000400)  returns 0x00 (0000ms, 0869ms total)
T22D8 001:860 JLINK_WriteReg(R2, 0x20000164)  returns 0x00 (0000ms, 0869ms total)
T22D8 001:860 JLINK_WriteReg(R3, 0x00000000)  returns 0x00 (0000ms, 0869ms total)
T22D8 001:860 JLINK_WriteReg(R4, 0x00000000)  returns 0x00 (0000ms, 0869ms total)
T22D8 001:860 JLINK_WriteReg(R5, 0x00000000)  returns 0x00 (0000ms, 0869ms total)
T22D8 001:860 JLINK_WriteReg(R6, 0x00000000)  returns 0x00 (0000ms, 0869ms total)
T22D8 001:860 JLINK_WriteReg(R7, 0x00000000)  returns 0x00 (0000ms, 0869ms total)
T22D8 001:860 JLINK_WriteReg(R8, 0x00000000)  returns 0x00 (0000ms, 0869ms total)
T22D8 001:860 JLINK_WriteReg(R9, 0x20000160)  returns 0x00 (0000ms, 0869ms total)
T22D8 001:860 JLINK_WriteReg(R10, 0x00000000)  returns 0x00 (0000ms, 0869ms total)
T22D8 001:860 JLINK_WriteReg(R11, 0x00000000)  returns 0x00 (0000ms, 0869ms total)
T22D8 001:860 JLINK_WriteReg(R12, 0x00000000)  returns 0x00 (0000ms, 0869ms total)
T22D8 001:860 JLINK_WriteReg(R13 (SP), 0x20001000)  returns 0x00 (0000ms, 0869ms total)
T22D8 001:860 JLINK_WriteReg(R14, 0x20000001)  returns 0x00 (0000ms, 0869ms total)
T22D8 001:860 JLINK_WriteReg(R15 (PC), 0x200000F4)  returns 0x00 (0000ms, 0869ms total)
T22D8 001:860 JLINK_WriteReg(XPSR, 0x01000000)  returns 0x00 (0000ms, 0869ms total)
T22D8 001:860 JLINK_WriteReg(MSP, 0x20001000)  returns 0x00 (0000ms, 0869ms total)
T22D8 001:860 JLINK_WriteReg(PSP, 0x20001000)  returns 0x00 (0001ms, 0870ms total)
T22D8 001:861 JLINK_WriteReg(CFBP, 0x00000000)  returns 0x00 (0000ms, 0870ms total)
T22D8 001:861 JLINK_SetBPEx(Addr = 0x20000000, Type = 0xFFFFFFF2)  returns 0x0000000F (0000ms, 0870ms total)
T22D8 001:861 JLINK_Go() -- CPU_ReadMem(4 bytes @ 0xE0001000) (0003ms, 0873ms total)
T22D8 001:864 JLINK_IsHalted()  returns FALSE (0000ms, 0873ms total)
T22D8 001:911 JLINK_IsHalted() -- CPU_ReadMem(2 bytes @ 0x20000000)  returns TRUE (0003ms, 0876ms total)
T22D8 001:914 JLINK_ReadReg(R15 (PC))  returns 0x20000000 (0000ms, 0873ms total)
T22D8 001:914 JLINK_ClrBPEx(BPHandle = 0x0000000F)  returns 0x00 (0000ms, 0873ms total)
T22D8 001:914 JLINK_ReadReg(R0)  returns 0x00000000 (0000ms, 0873ms total)
T22D8 001:915 JLINK_WriteMem(0x20000164, 0x0400 Bytes, ...) - Data: 00 F0 26 FC 42 F6 3F 31 01 20 00 F0 21 FC 4F F4 ... -- CPU_WriteMem(1024 bytes @ 0x20000164)  returns 0x400 (0013ms, 0886ms total)
T22D8 001:928 JLINK_WriteReg(R0, 0x08002C00)  returns 0x00 (0000ms, 0886ms total)
T22D8 001:928 JLINK_WriteReg(R1, 0x00000400)  returns 0x00 (0000ms, 0886ms total)
T22D8 001:928 JLINK_WriteReg(R2, 0x20000164)  returns 0x00 (0000ms, 0886ms total)
T22D8 001:928 JLINK_WriteReg(R3, 0x00000000)  returns 0x00 (0000ms, 0886ms total)
T22D8 001:928 JLINK_WriteReg(R4, 0x00000000)  returns 0x00 (0000ms, 0886ms total)
T22D8 001:928 JLINK_WriteReg(R5, 0x00000000)  returns 0x00 (0000ms, 0886ms total)
T22D8 001:928 JLINK_WriteReg(R6, 0x00000000)  returns 0x00 (0000ms, 0886ms total)
T22D8 001:928 JLINK_WriteReg(R7, 0x00000000)  returns 0x00 (0000ms, 0886ms total)
T22D8 001:928 JLINK_WriteReg(R8, 0x00000000)  returns 0x00 (0000ms, 0886ms total)
T22D8 001:928 JLINK_WriteReg(R9, 0x20000160)  returns 0x00 (0000ms, 0886ms total)
T22D8 001:928 JLINK_WriteReg(R10, 0x00000000)  returns 0x00 (0000ms, 0886ms total)
T22D8 001:928 JLINK_WriteReg(R11, 0x00000000)  returns 0x00 (0000ms, 0886ms total)
T22D8 001:928 JLINK_WriteReg(R12, 0x00000000)  returns 0x00 (0000ms, 0886ms total)
T22D8 001:928 JLINK_WriteReg(R13 (SP), 0x20001000)  returns 0x00 (0000ms, 0886ms total)
T22D8 001:928 JLINK_WriteReg(R14, 0x20000001)  returns 0x00 (0000ms, 0886ms total)
T22D8 001:928 JLINK_WriteReg(R15 (PC), 0x200000F4)  returns 0x00 (0000ms, 0886ms total)
T22D8 001:928 JLINK_WriteReg(XPSR, 0x01000000)  returns 0x00 (0000ms, 0886ms total)
T22D8 001:928 JLINK_WriteReg(MSP, 0x20001000)  returns 0x00 (0000ms, 0886ms total)
T22D8 001:928 JLINK_WriteReg(PSP, 0x20001000)  returns 0x00 (0000ms, 0886ms total)
T22D8 001:928 JLINK_WriteReg(CFBP, 0x00000000)  returns 0x00 (0000ms, 0886ms total)
T22D8 001:928 JLINK_SetBPEx(Addr = 0x20000000, Type = 0xFFFFFFF2)  returns 0x00000010 (0000ms, 0886ms total)
T22D8 001:928 JLINK_Go() -- CPU_ReadMem(4 bytes @ 0xE0001000) (0002ms, 0888ms total)
T22D8 001:930 JLINK_IsHalted()  returns FALSE (0000ms, 0888ms total)
T22D8 001:937 JLINK_IsHalted()  returns FALSE (0001ms, 0889ms total)
T22D8 001:945 JLINK_IsHalted()  returns FALSE (0001ms, 0889ms total)
T22D8 001:948 JLINK_IsHalted()  returns FALSE (0000ms, 0888ms total)
T22D8 001:950 JLINK_IsHalted()  returns FALSE (0000ms, 0888ms total)
T22D8 001:952 JLINK_IsHalted()  returns FALSE (0000ms, 0888ms total)
